
T1944 000:316 SEGGER J-Link V4.96d Log File (0006ms, 0281ms total)
T1944 000:316 DLL Compiled: Jan 29 2015 11:45:37 (0006ms, 0281ms total)
T1944 000:316 Logging started @ 2018-07-15 17:05 (0006ms, 0281ms total)
T1944 000:322 JLINK_SetWarnOutHandler(...) (0000ms, 0281ms total)
T1944 000:322 JLINK_OpenEx(...)
Firmware: J-Link ARM-OB STM32 compiled Aug 22 2012 19:52:04
Hardware: V7.00
S/N: 20090928
Feature(s): RDI,FlashDL,FlashBP,JFlash,GDBFull  returns O.K. (0274ms, 0555ms total)
T1944 000:596 JLINK_SetErrorOutHandler(...) (0000ms, 0555ms total)
T1944 000:596 JLINK_ExecCommand("ProjectFile = "C:\Source\ctrl_ram_v05(20151004)\ctrl_ram\USER\JLinkSettings.ini"", ...)  returns 0x00 (0001ms, 0556ms total)
T1944 000:597 JLINK_ExecCommand("Device = STM32F103RC", ...)Device "STM32F103RC" selected.  returns 0x00 (0004ms, 0561ms total)
T1944 000:602 JLINK_ExecCommand("DisableConnectionTimeout", ...)  returns 0x01 (0000ms, 0561ms total)
T1944 000:602 JLINK_GetHardwareVersion()  returns 0x11170 (0000ms, 0561ms total)
T1944 000:602 JLINK_GetDLLVersion()  returns 49604 (0000ms, 0561ms total)
T1944 000:602 JLINK_GetFirmwareString(...) (0000ms, 0561ms total)
T1944 000:611 JLINK_GetDLLVersion()  returns 49604 (0001ms, 0562ms total)
T1944 000:612 JLINK_GetCompileDateTime() (0000ms, 0562ms total)
T1944 000:620 JLINK_GetFirmwareString(...) (0000ms, 0562ms total)
T1944 000:621 JLINK_GetHardwareVersion()  returns 0x11170 (0000ms, 0562ms total)
T1944 000:632 JLINK_TIF_Select(JLINKARM_TIF_SWD)  returns 0x00 (0001ms, 0563ms total)
T1944 000:633 JLINK_SetSpeed(5000) (0001ms, 0564ms total)
T1944 000:634 JLINK_GetId() >0x108 TIF>Found SWD-DP with ID 0x1BA01477 >0x0D TIF> >0x28 TIF> >0x0D TIF> >0x28 TIF> >0x0D TIF> >0x21 TIF> >0x0D TIF> >0x28 TIF> >0x0D TIF> >0x28 TIF> >0x0D TIF> >0x28 TIF> >0x0D TIF> >0x21 TIF> >0x0D TIF> >0x21 TIF> >0x0D TIF> >0x28 TIF> >0x0D TIF> >0x21 TIF> >0x0D TIF> >0x21 TIF> >0x108 TIF>Found SWD-DP with ID 0x1BA01477 >0x0D TIF> >0x21 TIF> >0x0D TIF> >0x28 TIF> >0x0D TIF> >0x28 TIF> >0x0D TIF> >0x21 TIF> >0x0D TIF> >0x28 TIF> >0x0D TIF> >0x21 TIF> >0x0D TIF> >0x21 TIF>
 >0x0D TIF> >0x21 TIF> >0x0D TIF> >0x21 TIF> >0x0D TIF> >0x28 TIF> >0x0D TIF> >0x28 TIF> >0x0D TIF> >0x21 TIF> >0x0D TIF> >0x28 TIF> >0x0D TIF> >0x28 TIF> >0x0D TIF> >0x28 TIF> >0x0D TIF> >0x21 TIF> >0x0D TIF> >0x21 TIF> >0x0D TIF> >0x28 TIF> >0x0D TIF> >0x21 TIF> >0x0D TIF> >0x21 TIF>Found Cortex-M3 r1p1, Little endian. -- CPU_WriteMem(4 bytes @ 0xE0002000) -- CPU_ReadMem(4 bytes @ 0xE000EDF0) -- CPU_ReadMem(4 bytes @ 0xE0002000)FPUnit: 6 code (BP) slots and 2 literal slots
 -- CPU_ReadMem(4 bytes @ 0xE000EDFC) -- CPU_ReadMem(4 bytes @ 0xE0001000) -- CPU_WriteMem(4 bytes @ 0xE0001000) -- CPU_ReadMem(4 bytes @ 0xE000ED88) -- CPU_WriteMem(4 bytes @ 0xE000ED88) -- CPU_ReadMem(4 bytes @ 0xE000ED88) -- CPU_WriteMem(4 bytes @ 0xE000ED88) -- CPU_ReadMem(4 bytes @ 0xE00FF010)TPIU fitted. -- CPU_ReadMem(4 bytes @ 0xE00FF014)ETM fitted. -- CPU_ReadMem(4 bytes @ 0xE00FF018) >0x0D TIF> >0x21 TIF>  returns 0x1BA01477 (0050ms, 0614ms total)
T1944 000:684 JLINK_GetDLLVersion()  returns 49604 (0000ms, 0614ms total)
T1944 000:684 JLINK_CORE_GetFound()  returns 0x30000FF (0000ms, 0614ms total)
T1944 000:684 JLINK_GetDebugInfo(0x100) -- Value=0xE00FF003  returns 0x00 (0000ms, 0614ms total)
T1944 000:684 JLINK_ReadMem (0xE00FF000, 0x0020 Bytes, ...) -- CPU is running -- CPU_ReadMem(32 bytes @ 0xE00FF000) - Data: 03 F0 F0 FF 03 20 F0 FF 03 30 F0 FF 03 10 F0 FF ...  returns 0x00 (0002ms, 0616ms total)
T1944 000:686 JLINK_ReadMem (0xE000EFF0, 0x0010 Bytes, ...) -- CPU is running -- CPU_ReadMem(16 bytes @ 0xE000EFF0) - Data: 0D 00 00 00 E0 00 00 00 05 00 00 00 B1 00 00 00  returns 0x00 (0000ms, 0616ms total)
T1944 000:686 JLINK_ReadMem (0xE000EFD0, 0x0020 Bytes, ...) -- CPU is running -- CPU_ReadMem(32 bytes @ 0xE000EFD0) - Data: 04 00 00 00 00 00 00 00 00 00 00 00 00 00 00 00 ...  returns 0x00 (0002ms, 0618ms total)
T1944 000:688 JLINK_ReadMem (0xE0001FF0, 0x0010 Bytes, ...) -- CPU is running -- CPU_ReadMem(16 bytes @ 0xE0001FF0) - Data: 0D 00 00 00 E0 00 00 00 05 00 00 00 B1 00 00 00  returns 0x00 (0001ms, 0619ms total)
T1944 000:689 JLINK_ReadMem (0xE0001FD0, 0x0020 Bytes, ...) -- CPU is running -- CPU_ReadMem(32 bytes @ 0xE0001FD0) - Data: 04 00 00 00 00 00 00 00 00 00 00 00 00 00 00 00 ...  returns 0x00 (0001ms, 0620ms total)
T1944 000:690 JLINK_ReadMem (0xE0002FF0, 0x0010 Bytes, ...) -- CPU is running -- CPU_ReadMem(16 bytes @ 0xE0002FF0) - Data: 0D 00 00 00 E0 00 00 00 05 00 00 00 B1 00 00 00  returns 0x00 (0001ms, 0621ms total)
T1944 000:691 JLINK_ReadMem (0xE0002FD0, 0x0020 Bytes, ...) -- CPU is running -- CPU_ReadMem(32 bytes @ 0xE0002FD0) - Data: 04 00 00 00 00 00 00 00 00 00 00 00 00 00 00 00 ...  returns 0x00 (0002ms, 0623ms total)
T1944 000:693 JLINK_ReadMem (0xE0000FF0, 0x0010 Bytes, ...) -- CPU is running -- CPU_ReadMem(16 bytes @ 0xE0000FF0) - Data: 0D 00 00 00 E0 00 00 00 05 00 00 00 B1 00 00 00  returns 0x00 (0001ms, 0624ms total)
T1944 000:694 JLINK_ReadMem (0xE0000FD0, 0x0020 Bytes, ...) -- CPU is running -- CPU_ReadMem(32 bytes @ 0xE0000FD0) - Data: 04 00 00 00 00 00 00 00 00 00 00 00 00 00 00 00 ...  returns 0x00 (0001ms, 0625ms total)
T1944 000:695 JLINK_ReadMem (0xE0040FF0, 0x0010 Bytes, ...) -- CPU is running -- CPU_ReadMem(16 bytes @ 0xE0040FF0) - Data: 0D 00 00 00 90 00 00 00 05 00 00 00 B1 00 00 00  returns 0x00 (0001ms, 0626ms total)
T1944 000:696 JLINK_ReadMem (0xE0040FD0, 0x0020 Bytes, ...) -- CPU is running -- CPU_ReadMem(32 bytes @ 0xE0040FD0) - Data: 04 00 00 00 00 00 00 00 00 00 00 00 00 00 00 00 ...  returns 0x00 (0002ms, 0628ms total)
T1944 000:698 JLINK_ReadMem (0xE0041FF0, 0x0010 Bytes, ...) -- CPU is running -- CPU_ReadMem(16 bytes @ 0xE0041FF0) - Data: 0D 00 00 00 90 00 00 00 05 00 00 00 B1 00 00 00  returns 0x00 (0001ms, 0629ms total)
T1944 000:699 JLINK_ReadMem (0xE0041FD0, 0x0020 Bytes, ...) -- CPU is running -- CPU_ReadMem(32 bytes @ 0xE0041FD0) - Data: 04 00 00 00 00 00 00 00 00 00 00 00 00 00 00 00 ...  returns 0x00 (0001ms, 0630ms total)
T1944 000:700 JLINK_ReadMemU32(0xE000ED00, 0x0001 Items, ...) -- CPU is running -- CPU_ReadMem(4 bytes @ 0xE000ED00) - Data: 31 C2 1F 41  returns 0x01 (0001ms, 0631ms total)
T1944 000:701 JLINK_SetResetType(JLINKARM_RESET_TYPE_NORMAL)  returns JLINKARM_RESET_TYPE_NORMAL (0000ms, 0631ms total)
T1944 000:701 JLINK_Reset() -- CPU is running -- CPU_WriteMem(4 bytes @ 0xE000EDF0) -- CPU is running -- CPU_WriteMem(4 bytes @ 0xE000EDFC) >0x35 TIF> -- CPU is running -- CPU_WriteMem(4 bytes @ 0xE000ED0C) -- CPU is running -- CPU_ReadMem(4 bytes @ 0xE000EDF0) -- CPU is running -- CPU_ReadMem(4 bytes @ 0xE000EDF0) -- CPU is running -- CPU_WriteMem(4 bytes @ 0xE000EDF0) -- CPU is running -- CPU_WriteMem(4 bytes @ 0xE000EDFC) -- CPU is running -- CPU_ReadMem(4 bytes @ 0xE000EDF0)
 -- CPU_WriteMem(4 bytes @ 0xE0002000) -- CPU_ReadMem(4 bytes @ 0xE000EDFC) -- CPU_ReadMem(4 bytes @ 0xE0001000) (0026ms, 0657ms total)
T1944 000:727 JLINK_ReadReg(R15 (PC))  returns 0x0800193C (0000ms, 0657ms total)
T1944 000:727 JLINK_ReadReg(XPSR)  returns 0x01000000 (0000ms, 0657ms total)
T1944 000:727 JLINK_Halt()  returns 0x00 (0000ms, 0657ms total)
T1944 000:727 JLINK_IsHalted()  returns TRUE (0000ms, 0657ms total)
T1944 000:727 JLINK_ReadMemU32(0xE000EDF0, 0x0001 Items, ...) -- CPU_ReadMem(4 bytes @ 0xE000EDF0) - Data: 03 00 03 00  returns 0x01 (0001ms, 0658ms total)
T1944 000:728 JLINK_WriteU32(0xE000EDF0, 0xA05F0003) -- CPU_WriteMem(4 bytes @ 0xE000EDF0)  returns 0x00 (0001ms, 0659ms total)
T1944 000:729 JLINK_WriteU32(0xE000EDFC, 0x01000000) -- CPU_WriteMem(4 bytes @ 0xE000EDFC)  returns 0x00 (0001ms, 0660ms total)
T1944 000:733 JLINK_GetHWStatus(...)  returns 0x00 (0000ms, 0660ms total)
T1944 000:735 JLINK_GetNumBPUnits(Type = 0xFFFFFF00)  returns 0x06 (0000ms, 0660ms total)
T1944 000:735 JLINK_GetNumBPUnits(Type = 0xF0)  returns 0x2000 (0000ms, 0660ms total)
T1944 000:735 JLINK_GetNumWPUnits()  returns 0x04 (0000ms, 0660ms total)
T1944 000:737 JLINK_GetSpeed()  returns 0xFA0 (0000ms, 0660ms total)
T1944 000:738 JLINK_ReadMemU32(0xE000E004, 0x0001 Items, ...) -- CPU_ReadMem(4 bytes @ 0xE000E004) - Data: 01 00 00 00  returns 0x01 (0002ms, 0662ms total)
T1944 000:740 JLINK_ReadMemU32(0xE000E004, 0x0001 Items, ...) -- CPU_ReadMem(4 bytes @ 0xE000E004) - Data: 01 00 00 00  returns 0x01 (0001ms, 0663ms total)
T1944 000:741 JLINK_WriteMem(0xE0001000, 0x001C Bytes, ...) - Data: 01 00 00 00 00 00 00 00 00 00 00 00 00 00 00 00 ... -- CPU_WriteMem(28 bytes @ 0xE0001000)  returns 0x1C (0006ms, 0669ms total)
T1944 000:747 JLINK_ReadMem (0xE0001000, 0x001C Bytes, ...) -- CPU_ReadMem(28 bytes @ 0xE0001000) - Data: 01 00 00 40 00 00 00 00 00 00 00 00 00 00 00 00 ...  returns 0x00 (0001ms, 0670ms total)
T1944 000:748 JLINK_ReadReg(R15 (PC))  returns 0x0800193C (0000ms, 0670ms total)
T1944 000:748 JLINK_ReadReg(XPSR)  returns 0x01000000 (0000ms, 0670ms total)
T1944 000:927 JLINK_ReadMem (0x40003800, 0x0020 Bytes, ...) -- CPU_ReadMem(32 bytes @ 0x40003800) - Data: 00 00 00 00 00 00 00 00 00 00 00 00 00 00 00 00 ...  returns 0x00 (0001ms, 0671ms total)
T1944 000:929 JLINK_ReadMem (0x40003820, 0x0004 Bytes, ...) -- CPU_ReadMem(4 bytes @ 0x40003820) - Data: 00 00 00 00  returns 0x00 (0001ms, 0672ms total)
T1944 003:170 JLINK_ReadMem (0x00000000, 0x01B0 Bytes, ...) -- CPU_ReadMem(4 bytes @ 0x00000004) -- CPU_ReadMem(448 bytes @ 0x08000000) -- Updating C cache (448 bytes @ 0x08000000) -- Read from C cache (432 bytes @ 0x08000000) - Data: C8 07 00 20 3D 19 00 08 DB 01 00 08 DD 01 00 08 ...  returns 0x00 (0007ms, 0679ms total)
T1944 005:092 JLINK_ReadMem (0x20000000, 0x0004 Bytes, ...) -- CPU_ReadMem(64 bytes @ 0x20000000) -- Updating C cache (64 bytes @ 0x20000000) -- Read from C cache (4 bytes @ 0x20000000) - Data: FE E7 0A E0  returns 0x00 (0002ms, 0681ms total)
T1944 005:094 JLINK_WriteReg(R13 (SP), 0xE00AE7FE)  returns 0x00 (0000ms, 0681ms total)
T1944 005:094 JLINK_ReadReg(R0)  returns 0x00000000 (0001ms, 0682ms total)
T1944 005:095 JLINK_ReadReg(R1)  returns 0x00000003 (0000ms, 0682ms total)
T1944 005:095 JLINK_ReadReg(R2)  returns 0x40022000 (0000ms, 0682ms total)
T1944 005:095 JLINK_ReadReg(R3)  returns 0x04C11DB7 (0000ms, 0682ms total)
T1944 005:095 JLINK_ReadReg(R4)  returns 0x00000000 (0000ms, 0682ms total)
T1944 005:095 JLINK_ReadReg(R5)  returns 0x00000000 (0000ms, 0682ms total)
T1944 005:095 JLINK_ReadReg(R6)  returns 0x00000000 (0000ms, 0682ms total)
T1944 005:095 JLINK_ReadReg(R7)  returns 0x00000000 (0000ms, 0682ms total)
T1944 005:095 JLINK_ReadReg(R8)  returns 0x00000000 (0000ms, 0682ms total)
T1944 005:095 JLINK_ReadReg(R9)  returns 0x20000160 (0000ms, 0682ms total)
T1944 005:095 JLINK_ReadReg(R10)  returns 0x00000000 (0000ms, 0682ms total)
T1944 005:095 JLINK_ReadReg(R11)  returns 0x00000000 (0000ms, 0682ms total)
T1944 005:095 JLINK_ReadReg(R12)  returns 0x00000000 (0001ms, 0683ms total)
T1944 005:096 JLINK_ReadReg(R13 (SP))  returns 0xE00AE7FE (0000ms, 0683ms total)
T1944 005:096 JLINK_ReadReg(R14)  returns 0xFFFFFFFF (0000ms, 0683ms total)
T1944 005:096 JLINK_ReadReg(R15 (PC))  returns 0x0800193C (0000ms, 0683ms total)
T1944 005:096 JLINK_ReadReg(XPSR)  returns 0x01000000 (0000ms, 0683ms total)
T1944 005:096 JLINK_ReadReg(MSP)  returns 0xE00AE7FE (0000ms, 0683ms total)
T1944 005:096 JLINK_ReadReg(PSP)  returns 0x20004000 (0000ms, 0683ms total)
T1944 005:096 JLINK_ReadReg(CFBP)  returns 0x00000000 (0000ms, 0683ms total)
T1944 005:096 JLINK_ReadMem (0x20000004, 0x0004 Bytes, ...) -- Read from C cache (4 bytes @ 0x20000004) - Data: 0D 78 2D 06  returns 0x00 (0000ms, 0683ms total)
T1944 005:096 JLINK_WriteReg(R15 (PC), 0x062D780C)  returns 0x00 (0000ms, 0683ms total)
T1944 005:096 JLINK_ReadReg(R0)  returns 0x00000000 (0000ms, 0683ms total)
T1944 005:096 JLINK_ReadReg(R1)  returns 0x00000003 (0000ms, 0683ms total)
T1944 005:096 JLINK_ReadReg(R2)  returns 0x40022000 (0000ms, 0683ms total)
T1944 005:096 JLINK_ReadReg(R3)  returns 0x04C11DB7 (0000ms, 0683ms total)
T1944 005:096 JLINK_ReadReg(R4)  returns 0x00000000 (0000ms, 0683ms total)
T1944 005:096 JLINK_ReadReg(R5)  returns 0x00000000 (0000ms, 0683ms total)
T1944 005:096 JLINK_ReadReg(R6)  returns 0x00000000 (0001ms, 0684ms total)
T1944 005:097 JLINK_ReadReg(R7)  returns 0x00000000 (0000ms, 0684ms total)
T1944 005:097 JLINK_ReadReg(R8)  returns 0x00000000 (0000ms, 0684ms total)
T1944 005:097 JLINK_ReadReg(R9)  returns 0x20000160 (0000ms, 0684ms total)
T1944 005:097 JLINK_ReadReg(R10)  returns 0x00000000 (0000ms, 0684ms total)
T1944 005:097 JLINK_ReadReg(R11)  returns 0x00000000 (0000ms, 0684ms total)
T1944 005:097 JLINK_ReadReg(R12)  returns 0x00000000 (0000ms, 0684ms total)
T1944 005:097 JLINK_ReadReg(R13 (SP))  returns 0xE00AE7FE (0000ms, 0684ms total)
T1944 005:097 JLINK_ReadReg(R14)  returns 0xFFFFFFFF (0000ms, 0684ms total)
T1944 005:097 JLINK_ReadReg(R15 (PC))  returns 0x062D780C (0000ms, 0684ms total)
T1944 005:097 JLINK_ReadReg(XPSR)  returns 0x01000000 (0000ms, 0684ms total)
T1944 005:097 JLINK_ReadReg(MSP)  returns 0xE00AE7FE (0000ms, 0684ms total)
T1944 005:097 JLINK_ReadReg(PSP)  returns 0x20004000 (0000ms, 0684ms total)
T1944 005:097 JLINK_ReadReg(CFBP)  returns 0x00000000 (0000ms, 0684ms total)
T1944 005:097 JLINK_WriteMem(0xE000ED08, 0x0004 Bytes, ...) - Data: 00 00 00 20 -- CPU_WriteMem(4 bytes @ 0xE000ED08)  returns 0x04 (0001ms, 0685ms total)
T2BBC 005:406 JLINK_SetBPEx(Addr = 0x080001CA, Type = 0xFFFFFFF2)  returns 0x00000001 (0000ms, 0685ms total)
T2BBC 005:406 JLINK_Go() -- CPU_WriteMem(4 bytes @ 0xE0002000) -- CPU_WriteMem(4 bytes @ 0xE0002008) -- CPU_WriteMem(4 bytes @ 0xE000200C) -- CPU_WriteMem(4 bytes @ 0xE0002010) -- CPU_WriteMem(4 bytes @ 0xE0002014) -- CPU_WriteMem(4 bytes @ 0xE0002018) -- CPU_WriteMem(4 bytes @ 0xE000201C) -- CPU_WriteMem(4 bytes @ 0xE0001004) (0008ms, 0693ms total)
T2BBC 005:515 JLINK_IsHalted()T-bit of XPSR is 0 but should be 1. Changed to 1.  returns TRUE (0013ms, 0706ms total)
T2BBC 005:528 JLINK_Halt()  returns 0x00 (0000ms, 0693ms total)
T2BBC 005:528 JLINK_IsHalted()  returns TRUE (0001ms, 0694ms total)
T2BBC 005:529 JLINK_IsHalted()  returns TRUE (0000ms, 0693ms total)
T2BBC 005:529 JLINK_IsHalted()  returns TRUE (0000ms, 0693ms total)
T2BBC 005:529 JLINK_ReadReg(R15 (PC))  returns 0xD3000040 (0000ms, 0693ms total)
T2BBC 005:529 JLINK_ReadReg(XPSR)  returns 0x01000003 (0000ms, 0693ms total)
T2BBC 005:529 JLINK_ClrBPEx(BPHandle = 0x00000001)  returns 0x00 (0000ms, 0693ms total)
T2BBC 005:529 JLINK_ReadMemU32(0xE000ED30, 0x0001 Items, ...) -- CPU_ReadMem(4 bytes @ 0xE000ED30) - Data: 01 00 00 00  returns 0x01 (0001ms, 0694ms total)
T2BBC 005:530 JLINK_ReadMemU32(0xE0001028, 0x0001 Items, ...) -- CPU_ReadMem(4 bytes @ 0xE0001028) - Data: 00 00 00 00  returns 0x01 (0001ms, 0695ms total)
T2BBC 005:531 JLINK_ReadMemU32(0xE0001038, 0x0001 Items, ...) -- CPU_ReadMem(4 bytes @ 0xE0001038) - Data: 00 02 00 00  returns 0x01 (0000ms, 0695ms total)
T2BBC 005:531 JLINK_ReadMemU32(0xE0001048, 0x0001 Items, ...) -- CPU_ReadMem(4 bytes @ 0xE0001048) - Data: 00 00 00 00  returns 0x01 (0001ms, 0696ms total)
T2BBC 005:532 JLINK_ReadMemU32(0xE0001058, 0x0001 Items, ...) -- CPU_ReadMem(4 bytes @ 0xE0001058) - Data: 00 00 00 00  returns 0x01 (0001ms, 0697ms total)
T2BBC 005:533 JLINK_ReadReg(R0)  returns 0x00000000 (0001ms, 0698ms total)
T2BBC 005:534 JLINK_ReadReg(R1)  returns 0x00000003 (0000ms, 0698ms total)
T2BBC 005:534 JLINK_ReadReg(R2)  returns 0x40022000 (0000ms, 0698ms total)
T2BBC 005:534 JLINK_ReadReg(R3)  returns 0x04C11DB7 (0000ms, 0698ms total)
T2BBC 005:534 JLINK_ReadReg(R4)  returns 0x00000000 (0000ms, 0698ms total)
T2BBC 005:534 JLINK_ReadReg(R5)  returns 0x00000000 (0000ms, 0698ms total)
T2BBC 005:534 JLINK_ReadReg(R6)  returns 0x00000000 (0000ms, 0698ms total)
T2BBC 005:534 JLINK_ReadReg(R7)  returns 0x00000000 (0000ms, 0698ms total)
T2BBC 005:534 JLINK_ReadReg(R8)  returns 0x00000000 (0000ms, 0698ms total)
T2BBC 005:534 JLINK_ReadReg(R9)  returns 0x20000160 (0000ms, 0698ms total)
T2BBC 005:534 JLINK_ReadReg(R10)  returns 0x00000000 (0000ms, 0698ms total)
T2BBC 005:534 JLINK_ReadReg(R11)  returns 0x00000000 (0001ms, 0699ms total)
T2BBC 005:535 JLINK_ReadReg(R12)  returns 0x00000000 (0000ms, 0699ms total)
T2BBC 005:535 JLINK_ReadReg(R13 (SP))  returns 0xE00AE7DC (0000ms, 0699ms total)
T2BBC 005:535 JLINK_ReadReg(R14)  returns 0xFFFFFFF9 (0000ms, 0699ms total)
T2BBC 005:535 JLINK_ReadReg(R15 (PC))  returns 0xD3000040 (0000ms, 0699ms total)
T2BBC 005:535 JLINK_ReadReg(XPSR)  returns 0x01000003 (0000ms, 0699ms total)
T2BBC 005:535 JLINK_ReadReg(MSP)  returns 0xE00AE7DC (0000ms, 0699ms total)
T2BBC 005:535 JLINK_ReadReg(PSP)  returns 0x20004000 (0000ms, 0699ms total)
T2BBC 005:535 JLINK_ReadReg(CFBP)  returns 0x00000000 (0000ms, 0699ms total)
T1944 005:646 JLINK_ReadMem (0xE00AE7F4, 0x0004 Bytes, ...) -- CPU_ReadMem(4 bytes @ 0xE00AE7F4) - Data: 00 00 00 00  returns 0x00 (0001ms, 0700ms total)
T1944 005:648 JLINK_ReadMem (0xE00AE7F8, 0x0004 Bytes, ...) -- CPU_ReadMem(4 bytes @ 0xE00AE7F8) - Data: 00 00 00 00  returns 0x00 (0001ms, 0701ms total)
T1944 005:649 JLINK_ReadMem (0xE00AE7F0, 0x0004 Bytes, ...) -- CPU_ReadMem(4 bytes @ 0xE00AE7F0) - Data: 00 00 00 00  returns 0x00 (0000ms, 0701ms total)
T1944 005:650 JLINK_ReadMem (0xE000ED28, 0x0004 Bytes, ...) -- CPU_ReadMem(4 bytes @ 0xE000ED28) - Data: 01 01 00 00  returns 0x00 (0000ms, 0701ms total)
T1944 005:653 JLINK_ReadMem (0x40003800, 0x0020 Bytes, ...) -- CPU_ReadMem(32 bytes @ 0x40003800) - Data: 00 00 00 00 00 00 00 00 00 00 00 00 00 00 00 00 ...  returns 0x00 (0001ms, 0702ms total)
T1944 005:654 JLINK_ReadMem (0x40003820, 0x0004 Bytes, ...) -- CPU_ReadMem(4 bytes @ 0x40003820) - Data: 00 00 00 00  returns 0x00 (0001ms, 0703ms total)
T1944 005:673 JLINK_ReadMem (0xD3000040, 0x003C Bytes, ...) -- CPU_ReadMem(64 bytes @ 0xD3000040) -- Updating DA cache (64 bytes @ 0xD3000040) -- Read from DA cache (60 bytes @ 0xD3000040) - Data: 00 00 00 00 00 00 00 00 00 00 00 00 00 00 00 00 ...  returns 0x00 (0001ms, 0704ms total)
T1944 022:545 JLINK_SetResetType(JLINKARM_RESET_TYPE_NORMAL)  returns JLINKARM_RESET_TYPE_NORMAL (0000ms, 0704ms total)
T1944 022:545 JLINK_Reset() -- CPU_WriteMem(4 bytes @ 0xE000EDF0) -- CPU_WriteMem(4 bytes @ 0xE000EDFC) >0x35 TIF> -- CPU_WriteMem(4 bytes @ 0xE000ED0C) -- CPU_ReadMem(4 bytes @ 0xE000EDF0) -- CPU_ReadMem(4 bytes @ 0xE000EDF0) -- CPU_WriteMem(4 bytes @ 0xE000EDF0) -- CPU_WriteMem(4 bytes @ 0xE000EDFC) -- CPU is running -- CPU_ReadMem(4 bytes @ 0xE000EDF0) -- CPU_WriteMem(4 bytes @ 0xE0002000) -- CPU_ReadMem(4 bytes @ 0xE000EDFC) -- CPU_ReadMem(4 bytes @ 0xE0001000) (0023ms, 0727ms total)
T1944 022:569 JLINK_ReadReg(R15 (PC))  returns 0x0800193C (0000ms, 0727ms total)
T1944 022:569 JLINK_ReadReg(XPSR)  returns 0x01000000 (0000ms, 0727ms total)
T1944 022:569 JLINK_ReadMem (0x0800193C, 0x003C Bytes, ...) -- CPU_ReadMem(128 bytes @ 0x08001900) -- Updating C cache (128 bytes @ 0x08001900) -- Read from C cache (60 bytes @ 0x0800193C) - Data: 09 48 80 47 09 48 00 47 FE E7 FE E7 FE E7 FE E7 ...  returns 0x00 (0002ms, 0729ms total)
T2BBC 025:084 JLINK_SetBPEx(Addr = 0x08000542, Type = 0xFFFFFFF2)  returns 0x00000002 (0001ms, 0730ms total)
T2BBC 025:085 JLINK_Go() -- CPU_WriteMem(4 bytes @ 0xE0002000) -- CPU_WriteMem(4 bytes @ 0xE0002008) -- CPU_WriteMem(4 bytes @ 0xE000200C) -- CPU_WriteMem(4 bytes @ 0xE0002010) -- CPU_WriteMem(4 bytes @ 0xE0002014) -- CPU_WriteMem(4 bytes @ 0xE0002018) -- CPU_WriteMem(4 bytes @ 0xE000201C) -- CPU_WriteMem(4 bytes @ 0xE0001004) (0006ms, 0736ms total)
T2BBC 025:192 JLINK_IsHalted()  returns FALSE (0001ms, 0737ms total)
T2BBC 025:294 JLINK_IsHalted()  returns FALSE (0000ms, 0736ms total)
T2BBC 025:395 JLINK_IsHalted()  returns FALSE (0000ms, 0736ms total)
T2BBC 025:497 JLINK_IsHalted()  returns FALSE (0001ms, 0737ms total)
T2BBC 025:598 JLINK_IsHalted()  returns FALSE (0001ms, 0737ms total)
T2BBC 025:700 JLINK_IsHalted()  returns FALSE (0000ms, 0736ms total)
T2BBC 025:801 JLINK_IsHalted()  returns FALSE (0001ms, 0737ms total)
T2BBC 025:903 JLINK_IsHalted()  returns FALSE (0001ms, 0737ms total)
T2BBC 026:005 JLINK_IsHalted()  returns FALSE (0001ms, 0737ms total)
T2BBC 026:107 JLINK_IsHalted()  returns FALSE (0001ms, 0737ms total)
T2BBC 026:209 JLINK_IsHalted()  returns FALSE (0000ms, 0736ms total)
T2BBC 026:310 JLINK_IsHalted()  returns FALSE (0000ms, 0736ms total)
T2BBC 026:411 JLINK_IsHalted()  returns FALSE (0001ms, 0737ms total)
T2BBC 026:513 JLINK_IsHalted()  returns FALSE (0001ms, 0737ms total)
T2BBC 026:615 JLINK_IsHalted()  returns FALSE (0001ms, 0737ms total)
T2BBC 026:717 JLINK_IsHalted()  returns FALSE (0001ms, 0737ms total)
T2BBC 026:820 JLINK_IsHalted()  returns FALSE (0000ms, 0736ms total)
T2BBC 026:922 JLINK_IsHalted()  returns TRUE (0004ms, 0740ms total)
T2BBC 026:926 JLINK_Halt()  returns 0x00 (0000ms, 0736ms total)
T2BBC 026:926 JLINK_IsHalted()  returns TRUE (0000ms, 0736ms total)
T2BBC 026:926 JLINK_IsHalted()  returns TRUE (0000ms, 0736ms total)
T2BBC 026:926 JLINK_IsHalted()  returns TRUE (0000ms, 0736ms total)
T2BBC 026:926 JLINK_ReadReg(R15 (PC))  returns 0x08000542 (0000ms, 0736ms total)
T2BBC 026:926 JLINK_ReadReg(XPSR)  returns 0xA1000034 (0000ms, 0736ms total)
T2BBC 026:926 JLINK_ClrBPEx(BPHandle = 0x00000002)  returns 0x00 (0000ms, 0736ms total)
T2BBC 026:926 JLINK_ReadMemU32(0xE000ED30, 0x0001 Items, ...) -- CPU_ReadMem(4 bytes @ 0xE000ED30) - Data: 03 00 00 00  returns 0x01 (0001ms, 0737ms total)
T2BBC 026:927 JLINK_ReadMemU32(0xE0001028, 0x0001 Items, ...) -- CPU_ReadMem(4 bytes @ 0xE0001028) - Data: 00 00 00 00  returns 0x01 (0001ms, 0738ms total)
T2BBC 026:928 JLINK_ReadMemU32(0xE0001038, 0x0001 Items, ...) -- CPU_ReadMem(4 bytes @ 0xE0001038) - Data: 00 02 00 00  returns 0x01 (0001ms, 0739ms total)
T2BBC 026:929 JLINK_ReadMemU32(0xE0001048, 0x0001 Items, ...) -- CPU_ReadMem(4 bytes @ 0xE0001048) - Data: 00 00 00 00  returns 0x01 (0001ms, 0740ms total)
T2BBC 026:930 JLINK_ReadMemU32(0xE0001058, 0x0001 Items, ...) -- CPU_ReadMem(4 bytes @ 0xE0001058) - Data: 00 00 00 00  returns 0x01 (0001ms, 0741ms total)
T2BBC 026:931 JLINK_ReadReg(R0)  returns 0x00000001 (0000ms, 0741ms total)
T2BBC 026:931 JLINK_ReadReg(R1)  returns 0x40003800 (0000ms, 0741ms total)
T2BBC 026:931 JLINK_ReadReg(R2)  returns 0x00000001 (0000ms, 0741ms total)
T2BBC 026:931 JLINK_ReadReg(R3)  returns 0xFFFFFFFE (0000ms, 0741ms total)
T2BBC 026:932 JLINK_ReadReg(R4)  returns 0x00000001 (0000ms, 0741ms total)
T2BBC 026:932 JLINK_ReadReg(R5)  returns 0x20000168 (0000ms, 0741ms total)
T2BBC 026:932 JLINK_ReadReg(R6)  returns 0x00000000 (0000ms, 0741ms total)
T2BBC 026:932 JLINK_ReadReg(R7)  returns 0x00000000 (0000ms, 0741ms total)
T2BBC 026:932 JLINK_ReadReg(R8)  returns 0x00000000 (0000ms, 0741ms total)
T2BBC 026:932 JLINK_ReadReg(R9)  returns 0x20000160 (0000ms, 0741ms total)
T2BBC 026:932 JLINK_ReadReg(R10)  returns 0x08003EDC (0000ms, 0741ms total)
T2BBC 026:932 JLINK_ReadReg(R11)  returns 0x00000000 (0000ms, 0741ms total)
T2BBC 026:932 JLINK_ReadReg(R12)  returns 0x00000008 (0000ms, 0741ms total)
T2BBC 026:932 JLINK_ReadReg(R13 (SP))  returns 0x20000758 (0000ms, 0741ms total)
T2BBC 026:932 JLINK_ReadReg(R14)  returns 0x08000541 (0000ms, 0741ms total)
T2BBC 026:932 JLINK_ReadReg(R15 (PC))  returns 0x08000542 (0000ms, 0741ms total)
T2BBC 026:933 JLINK_ReadReg(XPSR)  returns 0xA1000034 (0000ms, 0742ms total)
T2BBC 026:933 JLINK_ReadReg(MSP)  returns 0x20000758 (0000ms, 0742ms total)
T2BBC 026:933 JLINK_ReadReg(PSP)  returns 0x20004000 (0000ms, 0742ms total)
T2BBC 026:933 JLINK_ReadReg(CFBP)  returns 0x00000000 (0000ms, 0742ms total)
T1944 026:937 JLINK_ReadMem (0x2000075C, 0x0004 Bytes, ...) -- CPU_ReadMem(64 bytes @ 0x20000740) -- Updating C cache (64 bytes @ 0x20000740) -- Read from C cache (4 bytes @ 0x2000075C) - Data: F1 FF FF FF  returns 0x00 (0002ms, 0744ms total)
T1944 026:939 JLINK_ReadMem (0x20000778, 0x0004 Bytes, ...) -- Read from C cache (4 bytes @ 0x20000778) - Data: BC 13 00 08  returns 0x00 (0000ms, 0744ms total)
T1944 026:939 JLINK_ReadMem (0x2000077C, 0x0004 Bytes, ...) -- Read from C cache (4 bytes @ 0x2000077C) - Data: 1B 00 00 21  returns 0x00 (0000ms, 0744ms total)
T1944 026:939 JLINK_ReadMem (0x20000774, 0x0004 Bytes, ...) -- Read from C cache (4 bytes @ 0x20000774) - Data: 91 16 00 08  returns 0x00 (0000ms, 0744ms total)
T1944 026:939 JLINK_ReadMem (0xE000ED28, 0x0004 Bytes, ...) -- CPU_ReadMem(4 bytes @ 0xE000ED28) - Data: 00 00 00 00  returns 0x00 (0001ms, 0745ms total)
T1944 026:941 JLINK_ReadMem (0x20000784, 0x0004 Bytes, ...) -- CPU_ReadMem(64 bytes @ 0x20000780) -- Updating C cache (64 bytes @ 0x20000780) -- Read from C cache (4 bytes @ 0x20000784) - Data: 91 16 00 08  returns 0x00 (0001ms, 0746ms total)
T1944 026:943 JLINK_ReadMem (0x20000780, 0x0004 Bytes, ...) -- Read from C cache (4 bytes @ 0x20000780) - Data: 00 00 00 00  returns 0x00 (0000ms, 0746ms total)
T1944 026:943 JLINK_ReadMem (0x2000078C, 0x0004 Bytes, ...) -- Read from C cache (4 bytes @ 0x2000078C) - Data: F9 FF FF FF  returns 0x00 (0000ms, 0746ms total)
T1944 026:943 JLINK_ReadMem (0x200007A8, 0x0004 Bytes, ...) -- Read from C cache (4 bytes @ 0x200007A8) - Data: CC 05 00 08  returns 0x00 (0000ms, 0746ms total)
T1944 026:943 JLINK_ReadMem (0x200007AC, 0x0004 Bytes, ...) -- Read from C cache (4 bytes @ 0x200007AC) - Data: 00 00 00 81  returns 0x00 (0000ms, 0746ms total)
T1944 026:943 JLINK_ReadMem (0x200007A4, 0x0004 Bytes, ...) -- Read from C cache (4 bytes @ 0x200007A4) - Data: 7F 17 00 08  returns 0x00 (0000ms, 0746ms total)
T1944 026:943 JLINK_ReadMem (0xE000ED28, 0x0004 Bytes, ...) -- CPU_ReadMem(4 bytes @ 0xE000ED28) - Data: 00 00 00 00  returns 0x00 (0001ms, 0747ms total)
T1944 026:953 JLINK_ReadMem (0x40003800, 0x0020 Bytes, ...) -- CPU_ReadMem(32 bytes @ 0x40003800) - Data: 7A 02 00 00 40 00 00 00 02 00 00 00 01 00 00 00 ...  returns 0x00 (0001ms, 0749ms total)
T1944 026:954 JLINK_ReadMem (0x40003820, 0x0004 Bytes, ...) -- CPU_ReadMem(4 bytes @ 0x40003820) - Data: 02 00 00 00  returns 0x00 (0001ms, 0750ms total)
T1944 026:956 JLINK_ReadMem (0x40003800, 0x0004 Bytes, ...) -- CPU_ReadMem(4 bytes @ 0x40003800) - Data: 7A 02 00 00  returns 0x00 (0001ms, 0751ms total)
T1944 026:957 JLINK_ReadMem (0x40003800, 0x0004 Bytes, ...) -- CPU_ReadMem(4 bytes @ 0x40003800) - Data: 7A 02 00 00  returns 0x00 (0001ms, 0752ms total)
T1944 026:958 JLINK_ReadMem (0x40003800, 0x0004 Bytes, ...) -- CPU_ReadMem(4 bytes @ 0x40003800) - Data: 7A 02 00 00  returns 0x00 (0001ms, 0753ms total)
T1944 026:959 JLINK_ReadMem (0x40003800, 0x0004 Bytes, ...) -- CPU_ReadMem(4 bytes @ 0x40003800) - Data: 7A 02 00 00  returns 0x00 (0001ms, 0754ms total)
T1944 026:960 JLINK_ReadMem (0x40003800, 0x0004 Bytes, ...) -- CPU_ReadMem(4 bytes @ 0x40003800) - Data: 7A 02 00 00  returns 0x00 (0001ms, 0755ms total)
T1944 026:962 JLINK_ReadMem (0x40003800, 0x0004 Bytes, ...) -- CPU_ReadMem(4 bytes @ 0x40003800) - Data: 7A 02 00 00  returns 0x00 (0001ms, 0756ms total)
T1944 026:963 JLINK_ReadMem (0x40003800, 0x0004 Bytes, ...) -- CPU_ReadMem(4 bytes @ 0x40003800) - Data: 7A 02 00 00  returns 0x00 (0001ms, 0757ms total)
T1944 026:964 JLINK_ReadMem (0x40003800, 0x0004 Bytes, ...) -- CPU_ReadMem(4 bytes @ 0x40003800) - Data: 7A 02 00 00  returns 0x00 (0001ms, 0758ms total)
T1944 026:966 JLINK_ReadMem (0x40003800, 0x0004 Bytes, ...) -- CPU_ReadMem(4 bytes @ 0x40003800) - Data: 7A 02 00 00  returns 0x00 (0001ms, 0759ms total)
T1944 026:967 JLINK_ReadMem (0x40003800, 0x0004 Bytes, ...) -- CPU_ReadMem(4 bytes @ 0x40003800) - Data: 7A 02 00 00  returns 0x00 (0002ms, 0761ms total)
T1944 026:969 JLINK_ReadMem (0x40003800, 0x0004 Bytes, ...) -- CPU_ReadMem(4 bytes @ 0x40003800) - Data: 7A 02 00 00  returns 0x00 (0001ms, 0762ms total)
T1944 026:970 JLINK_ReadMem (0x40003800, 0x0004 Bytes, ...) -- CPU_ReadMem(4 bytes @ 0x40003800) - Data: 7A 02 00 00  returns 0x00 (0001ms, 0763ms total)
T1944 026:971 JLINK_ReadMem (0x40003800, 0x0004 Bytes, ...) -- CPU_ReadMem(4 bytes @ 0x40003800) - Data: 7A 02 00 00  returns 0x00 (0001ms, 0764ms total)
T1944 026:973 JLINK_ReadMem (0x40003800, 0x0004 Bytes, ...) -- CPU_ReadMem(4 bytes @ 0x40003800) - Data: 7A 02 00 00  returns 0x00 (0001ms, 0765ms total)
T1944 026:974 JLINK_ReadMem (0x40003800, 0x0004 Bytes, ...) -- CPU_ReadMem(4 bytes @ 0x40003800) - Data: 7A 02 00 00  returns 0x00 (0001ms, 0766ms total)
T1944 026:982 JLINK_ReadMem (0x40003804, 0x0004 Bytes, ...) -- CPU_ReadMem(4 bytes @ 0x40003804) - Data: 40 00 00 00  returns 0x00 (0001ms, 0767ms total)
T1944 026:983 JLINK_ReadMem (0x40003804, 0x0004 Bytes, ...) -- CPU_ReadMem(4 bytes @ 0x40003804) - Data: 40 00 00 00  returns 0x00 (0001ms, 0768ms total)
T1944 026:985 JLINK_ReadMem (0x40003804, 0x0004 Bytes, ...) -- CPU_ReadMem(4 bytes @ 0x40003804) - Data: 40 00 00 00  returns 0x00 (0001ms, 0769ms total)
T1944 026:986 JLINK_ReadMem (0x40003804, 0x0004 Bytes, ...) -- CPU_ReadMem(4 bytes @ 0x40003804) - Data: 40 00 00 00  returns 0x00 (0001ms, 0770ms total)
T1944 026:987 JLINK_ReadMem (0x40003804, 0x0004 Bytes, ...) -- CPU_ReadMem(4 bytes @ 0x40003804) - Data: 40 00 00 00  returns 0x00 (0001ms, 0771ms total)
T1944 026:989 JLINK_ReadMem (0x40003804, 0x0004 Bytes, ...) -- CPU_ReadMem(4 bytes @ 0x40003804) - Data: 40 00 00 00  returns 0x00 (0001ms, 0772ms total)
T1944 026:990 JLINK_ReadMem (0x40003804, 0x0004 Bytes, ...) -- CPU_ReadMem(4 bytes @ 0x40003804) - Data: 40 00 00 00  returns 0x00 (0001ms, 0773ms total)
T1944 026:997 JLINK_ReadMem (0x40003808, 0x0004 Bytes, ...) -- CPU_ReadMem(4 bytes @ 0x40003808) - Data: 02 00 00 00  returns 0x00 (0001ms, 0774ms total)
T1944 026:998 JLINK_ReadMem (0x40003808, 0x0004 Bytes, ...) -- CPU_ReadMem(4 bytes @ 0x40003808) - Data: 02 00 00 00  returns 0x00 (0001ms, 0775ms total)
T1944 027:000 JLINK_ReadMem (0x40003808, 0x0004 Bytes, ...) -- CPU_ReadMem(4 bytes @ 0x40003808) - Data: 02 00 00 00  returns 0x00 (0001ms, 0776ms total)
T1944 027:001 JLINK_ReadMem (0x40003808, 0x0004 Bytes, ...) -- CPU_ReadMem(4 bytes @ 0x40003808) - Data: 02 00 00 00  returns 0x00 (0001ms, 0777ms total)
T1944 027:002 JLINK_ReadMem (0x40003808, 0x0004 Bytes, ...) -- CPU_ReadMem(4 bytes @ 0x40003808) - Data: 02 00 00 00  returns 0x00 (0001ms, 0778ms total)
T1944 027:003 JLINK_ReadMem (0x40003808, 0x0004 Bytes, ...) -- CPU_ReadMem(4 bytes @ 0x40003808) - Data: 02 00 00 00  returns 0x00 (0001ms, 0779ms total)
T1944 027:005 JLINK_ReadMem (0x40003808, 0x0004 Bytes, ...) -- CPU_ReadMem(4 bytes @ 0x40003808) - Data: 02 00 00 00  returns 0x00 (0001ms, 0780ms total)
T1944 027:006 JLINK_ReadMem (0x40003808, 0x0004 Bytes, ...) -- CPU_ReadMem(4 bytes @ 0x40003808) - Data: 02 00 00 00  returns 0x00 (0001ms, 0781ms total)
T1944 027:007 JLINK_ReadMem (0x40003808, 0x0004 Bytes, ...) -- CPU_ReadMem(4 bytes @ 0x40003808) - Data: 02 00 00 00  returns 0x00 (0001ms, 0782ms total)
T1944 027:016 JLINK_ReadMem (0x4000380C, 0x0004 Bytes, ...) -- CPU_ReadMem(4 bytes @ 0x4000380C) - Data: 01 00 00 00  returns 0x00 (0001ms, 0783ms total)
T1944 027:017 JLINK_ReadMem (0x4000380C, 0x0004 Bytes, ...) -- CPU_ReadMem(4 bytes @ 0x4000380C) - Data: 01 00 00 00  returns 0x00 (0001ms, 0784ms total)
T1944 027:024 JLINK_ReadMem (0x40003810, 0x0004 Bytes, ...) -- CPU_ReadMem(4 bytes @ 0x40003810) - Data: 07 00 00 00  returns 0x00 (0001ms, 0785ms total)
T1944 027:025 JLINK_ReadMem (0x40003810, 0x0004 Bytes, ...) -- CPU_ReadMem(4 bytes @ 0x40003810) - Data: 07 00 00 00  returns 0x00 (0001ms, 0786ms total)
T1944 027:032 JLINK_ReadMem (0x40003820, 0x0004 Bytes, ...) -- CPU_ReadMem(4 bytes @ 0x40003820) - Data: 02 00 00 00  returns 0x00 (0001ms, 0787ms total)
T1944 027:034 JLINK_ReadMem (0x40003820, 0x0004 Bytes, ...) -- CPU_ReadMem(4 bytes @ 0x40003820) - Data: 02 00 00 00  returns 0x00 (0001ms, 0788ms total)
T1944 027:035 JLINK_ReadMem (0x40003820, 0x0004 Bytes, ...) -- CPU_ReadMem(4 bytes @ 0x40003820) - Data: 02 00 00 00  returns 0x00 (0001ms, 0789ms total)
T1944 027:036 JLINK_ReadMem (0x40003820, 0x0004 Bytes, ...) -- CPU_ReadMem(4 bytes @ 0x40003820) - Data: 02 00 00 00  returns 0x00 (0001ms, 0790ms total)
T1944 027:045 JLINK_ReadMem (0x08000542, 0x0002 Bytes, ...) -- CPU_ReadMem(64 bytes @ 0x08000540) -- Updating C cache (64 bytes @ 0x08000540) -- Read from C cache (2 bytes @ 0x08000542) - Data: 01 2C  returns 0x00 (0002ms, 0792ms total)
T1944 027:047 JLINK_ReadMem (0x08000544, 0x003C Bytes, ...) -- Read from C cache (60 bytes @ 0x08000544) - Data: 01 D1 60 1C C4 B2 10 BD 48 B1 01 21 14 4A 11 80 ...  returns 0x00 (0000ms, 0792ms total)
T2BBC 039:492 JLINK_Step() -- Read from C cache (2 bytes @ 0x08000542) -- CPU_ReadMem(4 bytes @ 0xE0001004) -- Simulated  returns 0x00 (0002ms, 0794ms total)
T2BBC 039:494 JLINK_ReadReg(R15 (PC))  returns 0x08000544 (0000ms, 0794ms total)
T2BBC 039:494 JLINK_ReadReg(XPSR)  returns 0x61000034 (0000ms, 0794ms total)
T2BBC 039:494 JLINK_SetBPEx(Addr = 0x08000542, Type = 0xFFFFFFF2)  returns 0x00000003 (0000ms, 0794ms total)
T2BBC 039:494 JLINK_Go() -- CPU_WriteMem(4 bytes @ 0xE0002000) -- CPU_WriteMem(4 bytes @ 0xE0001004) (0004ms, 0798ms total)
T2BBC 039:600 JLINK_IsHalted()  returns FALSE (0000ms, 0798ms total)
T2BBC 039:702 JLINK_IsHalted()  returns FALSE (0001ms, 0799ms total)
T2BBC 039:804 JLINK_IsHalted()  returns FALSE (0000ms, 0798ms total)
T2BBC 039:905 JLINK_IsHalted()  returns FALSE (0000ms, 0798ms total)
T2BBC 040:006 JLINK_IsHalted()  returns FALSE (0001ms, 0799ms total)
T2BBC 040:108 JLINK_IsHalted()  returns FALSE (0001ms, 0799ms total)
T2BBC 040:210 JLINK_IsHalted()  returns FALSE (0000ms, 0798ms total)
T2BBC 040:311 JLINK_IsHalted()  returns FALSE (0000ms, 0798ms total)
T2BBC 040:412 JLINK_IsHalted()  returns FALSE (0001ms, 0799ms total)
T2BBC 040:514 JLINK_IsHalted()  returns FALSE (0001ms, 0799ms total)
T2BBC 040:616 JLINK_IsHalted()  returns FALSE (0001ms, 0799ms total)
T2BBC 040:718 JLINK_IsHalted()  returns FALSE (0001ms, 0799ms total)
T2BBC 040:820 JLINK_IsHalted()  returns FALSE (0001ms, 0799ms total)
T2BBC 040:921 JLINK_IsHalted()  returns FALSE (0000ms, 0798ms total)
T2BBC 041:023 JLINK_IsHalted()  returns FALSE (0000ms, 0798ms total)
T2BBC 041:125 JLINK_IsHalted()  returns FALSE (0001ms, 0799ms total)
T2BBC 041:227 JLINK_IsHalted()  returns FALSE (0001ms, 0799ms total)
T2BBC 041:328 JLINK_IsHalted()  returns FALSE (0000ms, 0798ms total)
T2BBC 041:429 JLINK_IsHalted()  returns FALSE (0001ms, 0799ms total)
T2BBC 041:531 JLINK_IsHalted()  returns FALSE (0001ms, 0799ms total)
T2BBC 041:633 JLINK_IsHalted()  returns FALSE (0001ms, 0799ms total)
T2BBC 041:735 JLINK_IsHalted()  returns FALSE (0001ms, 0799ms total)
T2BBC 041:836 JLINK_IsHalted()  returns FALSE (0001ms, 0799ms total)
T2BBC 041:938 JLINK_IsHalted()  returns FALSE (0000ms, 0798ms total)
T2BBC 042:039 JLINK_IsHalted()  returns FALSE (0001ms, 0799ms total)
T2BBC 042:141 JLINK_IsHalted()  returns FALSE (0001ms, 0799ms total)
T2BBC 042:243 JLINK_IsHalted()  returns FALSE (0001ms, 0799ms total)
T2BBC 042:345 JLINK_IsHalted()  returns FALSE (0000ms, 0798ms total)
T2BBC 042:447 JLINK_IsHalted()  returns FALSE (0000ms, 0798ms total)
T2BBC 042:548 JLINK_IsHalted()  returns FALSE (0001ms, 0799ms total)
T2BBC 042:650 JLINK_IsHalted()  returns FALSE (0001ms, 0799ms total)
T2BBC 042:752 JLINK_IsHalted()  returns FALSE (0001ms, 0799ms total)
T2BBC 042:854 JLINK_IsHalted()  returns FALSE (0001ms, 0799ms total)
T2BBC 042:956 JLINK_IsHalted()  returns FALSE (0001ms, 0799ms total)
T2BBC 043:058 JLINK_IsHalted()  returns FALSE (0001ms, 0799ms total)
T2BBC 043:159 JLINK_IsHalted()  returns FALSE (0001ms, 0799ms total)
T2BBC 043:261 JLINK_IsHalted()  returns FALSE (0001ms, 0799ms total)
T2BBC 043:363 JLINK_IsHalted()  returns FALSE (0001ms, 0799ms total)
T2BBC 043:465 JLINK_IsHalted()  returns FALSE (0001ms, 0799ms total)
T2BBC 043:567 JLINK_IsHalted()  returns FALSE (0001ms, 0799ms total)
T2BBC 043:669 JLINK_IsHalted()  returns FALSE (0001ms, 0799ms total)
T2BBC 043:772 JLINK_IsHalted()  returns FALSE (0000ms, 0798ms total)
T2BBC 043:874 JLINK_IsHalted()  returns FALSE (0000ms, 0798ms total)
T2BBC 043:975 JLINK_IsHalted()  returns FALSE (0001ms, 0799ms total)
T2BBC 044:077 JLINK_IsHalted()  returns FALSE (0001ms, 0799ms total)
T2BBC 044:178 JLINK_IsHalted()  returns FALSE (0001ms, 0799ms total)
T2BBC 044:280 JLINK_IsHalted()  returns FALSE (0001ms, 0799ms total)
T2BBC 044:382 JLINK_IsHalted()  returns FALSE (0001ms, 0799ms total)
T2BBC 044:484 JLINK_IsHalted()  returns FALSE (0000ms, 0798ms total)
T2BBC 044:585 JLINK_IsHalted()  returns FALSE (0001ms, 0799ms total)
T2BBC 044:687 JLINK_IsHalted()  returns FALSE (0003ms, 0801ms total)
T2BBC 044:790 JLINK_IsHalted()  returns FALSE (0001ms, 0799ms total)
T2BBC 044:892 JLINK_IsHalted()  returns FALSE (0001ms, 0799ms total)
T2BBC 044:994 JLINK_IsHalted()  returns FALSE (0001ms, 0799ms total)
T2BBC 045:096 JLINK_IsHalted()  returns FALSE (0001ms, 0799ms total)
T2BBC 045:198 JLINK_IsHalted()  returns FALSE (0000ms, 0798ms total)
T2BBC 045:300 JLINK_IsHalted()  returns FALSE (0000ms, 0798ms total)
T2BBC 045:401 JLINK_IsHalted()  returns FALSE (0000ms, 0798ms total)
T2BBC 045:502 JLINK_IsHalted()  returns FALSE (0001ms, 0799ms total)
T2BBC 045:603 JLINK_IsHalted()  returns FALSE (0001ms, 0799ms total)
T2BBC 045:705 JLINK_IsHalted()  returns FALSE (0001ms, 0799ms total)
T2BBC 045:807 JLINK_IsHalted()  returns FALSE (0000ms, 0798ms total)
T2BBC 045:908 JLINK_IsHalted()  returns FALSE (0001ms, 0799ms total)
T2BBC 046:010 JLINK_IsHalted()  returns FALSE (0001ms, 0799ms total)
T2BBC 046:111 JLINK_IsHalted()  returns FALSE (0001ms, 0799ms total)
T2BBC 046:213 JLINK_IsHalted()  returns TRUE (0004ms, 0802ms total)
T2BBC 046:217 JLINK_Halt()  returns 0x00 (0000ms, 0798ms total)
T2BBC 046:217 JLINK_IsHalted()  returns TRUE (0000ms, 0798ms total)
T2BBC 046:217 JLINK_IsHalted()  returns TRUE (0000ms, 0798ms total)
T2BBC 046:217 JLINK_IsHalted()  returns TRUE (0000ms, 0798ms total)
T2BBC 046:217 JLINK_ReadReg(R15 (PC))  returns 0x08000542 (0000ms, 0798ms total)
T2BBC 046:217 JLINK_ReadReg(XPSR)  returns 0xA1000034 (0000ms, 0798ms total)
T2BBC 046:217 JLINK_ClrBPEx(BPHandle = 0x00000003)  returns 0x00 (0000ms, 0798ms total)
T2BBC 046:217 JLINK_ReadMemU32(0xE000ED30, 0x0001 Items, ...) -- CPU_ReadMem(4 bytes @ 0xE000ED30) - Data: 03 00 00 00  returns 0x01 (0001ms, 0799ms total)
T2BBC 046:218 JLINK_ReadMemU32(0xE0001028, 0x0001 Items, ...) -- CPU_ReadMem(4 bytes @ 0xE0001028) - Data: 00 00 00 00  returns 0x01 (0001ms, 0800ms total)
T2BBC 046:219 JLINK_ReadMemU32(0xE0001038, 0x0001 Items, ...) -- CPU_ReadMem(4 bytes @ 0xE0001038) - Data: 00 02 00 00  returns 0x01 (0001ms, 0801ms total)
T2BBC 046:220 JLINK_ReadMemU32(0xE0001048, 0x0001 Items, ...) -- CPU_ReadMem(4 bytes @ 0xE0001048) - Data: 00 00 00 00  returns 0x01 (0001ms, 0802ms total)
T2BBC 046:221 JLINK_ReadMemU32(0xE0001058, 0x0001 Items, ...) -- CPU_ReadMem(4 bytes @ 0xE0001058) - Data: 00 00 00 00  returns 0x01 (0001ms, 0803ms total)
T2BBC 046:223 JLINK_ReadReg(R0)  returns 0x00000001 (0000ms, 0803ms total)
T2BBC 046:223 JLINK_ReadReg(R1)  returns 0x40003800 (0000ms, 0803ms total)
T2BBC 046:223 JLINK_ReadReg(R2)  returns 0x00000001 (0000ms, 0803ms total)
T2BBC 046:223 JLINK_ReadReg(R3)  returns 0xFFFFFFFE (0000ms, 0803ms total)
T2BBC 046:223 JLINK_ReadReg(R4)  returns 0x00000001 (0000ms, 0803ms total)
T2BBC 046:223 JLINK_ReadReg(R5)  returns 0x20000168 (0000ms, 0803ms total)
T2BBC 046:223 JLINK_ReadReg(R6)  returns 0x00000000 (0000ms, 0803ms total)
T2BBC 046:223 JLINK_ReadReg(R7)  returns 0x00000000 (0000ms, 0803ms total)
T2BBC 046:223 JLINK_ReadReg(R8)  returns 0x00000000 (0000ms, 0803ms total)
T2BBC 046:223 JLINK_ReadReg(R9)  returns 0x20000160 (0000ms, 0803ms total)
T2BBC 046:223 JLINK_ReadReg(R10)  returns 0x08003EDC (0000ms, 0803ms total)
T2BBC 046:223 JLINK_ReadReg(R11)  returns 0x00000000 (0000ms, 0803ms total)
T2BBC 046:223 JLINK_ReadReg(R12)  returns 0x00000008 (0000ms, 0803ms total)
T2BBC 046:223 JLINK_ReadReg(R13 (SP))  returns 0x20000790 (0000ms, 0803ms total)
T2BBC 046:223 JLINK_ReadReg(R14)  returns 0x08000541 (0000ms, 0803ms total)
T2BBC 046:224 JLINK_ReadReg(R15 (PC))  returns 0x08000542 (0000ms, 0803ms total)
T2BBC 046:224 JLINK_ReadReg(XPSR)  returns 0xA1000034 (0000ms, 0803ms total)
T2BBC 046:224 JLINK_ReadReg(MSP)  returns 0x20000790 (0000ms, 0803ms total)
T2BBC 046:224 JLINK_ReadReg(PSP)  returns 0x20004000 (0000ms, 0803ms total)
T2BBC 046:224 JLINK_ReadReg(CFBP)  returns 0x00000000 (0000ms, 0803ms total)
T1944 046:224 JLINK_ReadMem (0x20000794, 0x0004 Bytes, ...) -- CPU_ReadMem(64 bytes @ 0x20000780) -- Updating C cache (64 bytes @ 0x20000780) -- Read from C cache (4 bytes @ 0x20000794) - Data: F9 FF FF FF  returns 0x00 (0002ms, 0805ms total)
T1944 046:226 JLINK_ReadMem (0x200007B0, 0x0004 Bytes, ...) -- Read from C cache (4 bytes @ 0x200007B0) - Data: D0 17 00 08  returns 0x00 (0000ms, 0805ms total)
T1944 046:226 JLINK_ReadMem (0x200007B4, 0x0004 Bytes, ...) -- Read from C cache (4 bytes @ 0x200007B4) - Data: 00 00 00 41  returns 0x00 (0000ms, 0805ms total)
T1944 046:226 JLINK_ReadMem (0x200007AC, 0x0004 Bytes, ...) -- Read from C cache (4 bytes @ 0x200007AC) - Data: 11 04 00 08  returns 0x00 (0000ms, 0805ms total)
T1944 046:226 JLINK_ReadMem (0xE000ED28, 0x0004 Bytes, ...) -- CPU_ReadMem(4 bytes @ 0xE000ED28) - Data: 00 00 00 00  returns 0x00 (0001ms, 0806ms total)
T1944 046:228 JLINK_ReadMem (0x200007BC, 0x0004 Bytes, ...) -- Read from C cache (4 bytes @ 0x200007BC) - Data: 11 04 00 08  returns 0x00 (0000ms, 0806ms total)
T1944 046:228 JLINK_ReadMem (0x200007B8, 0x0004 Bytes, ...) -- Read from C cache (4 bytes @ 0x200007B8) - Data: 00 00 00 00  returns 0x00 (0000ms, 0806ms total)
T1944 046:228 JLINK_ReadMem (0x200007C4, 0x0004 Bytes, ...) -- CPU_ReadMem(64 bytes @ 0x200007C0) -- Updating C cache (64 bytes @ 0x200007C0) -- Read from C cache (4 bytes @ 0x200007C4) - Data: D5 01 00 08  returns 0x00 (0002ms, 0808ms total)
T1944 046:231 JLINK_ReadMem (0x200007C0, 0x0004 Bytes, ...) -- Read from C cache (4 bytes @ 0x200007C0) - Data: 00 00 00 00  returns 0x00 (0000ms, 0808ms total)
T1944 046:236 JLINK_ReadMem (0x40003800, 0x0020 Bytes, ...) -- CPU_ReadMem(32 bytes @ 0x40003800) - Data: 7A 02 00 00 40 00 00 00 03 00 00 00 02 00 00 00 ...  returns 0x00 (0001ms, 0809ms total)
T1944 046:237 JLINK_ReadMem (0x40003820, 0x0004 Bytes, ...) -- CPU_ReadMem(4 bytes @ 0x40003820) - Data: 02 00 00 00  returns 0x00 (0001ms, 0810ms total)
T1944 046:239 JLINK_ReadMem (0x40003808, 0x0004 Bytes, ...) -- CPU_ReadMem(4 bytes @ 0x40003808) - Data: 02 00 00 00  returns 0x00 (0001ms, 0811ms total)
T1944 046:240 JLINK_ReadMem (0x40003808, 0x0004 Bytes, ...) -- CPU_ReadMem(4 bytes @ 0x40003808) - Data: 02 00 00 00  returns 0x00 (0002ms, 0813ms total)
T1944 046:242 JLINK_ReadMem (0x40003808, 0x0004 Bytes, ...) -- CPU_ReadMem(4 bytes @ 0x40003808) - Data: 02 00 00 00  returns 0x00 (0001ms, 0814ms total)
T1944 046:243 JLINK_ReadMem (0x40003808, 0x0004 Bytes, ...) -- CPU_ReadMem(4 bytes @ 0x40003808) - Data: 02 00 00 00  returns 0x00 (0001ms, 0815ms total)
T1944 046:244 JLINK_ReadMem (0x40003808, 0x0004 Bytes, ...) -- CPU_ReadMem(4 bytes @ 0x40003808) - Data: 02 00 00 00  returns 0x00 (0001ms, 0816ms total)
T1944 046:245 JLINK_ReadMem (0x40003808, 0x0004 Bytes, ...) -- CPU_ReadMem(4 bytes @ 0x40003808) - Data: 02 00 00 00  returns 0x00 (0001ms, 0817ms total)
T1944 046:247 JLINK_ReadMem (0x40003808, 0x0004 Bytes, ...) -- CPU_ReadMem(4 bytes @ 0x40003808) - Data: 02 00 00 00  returns 0x00 (0001ms, 0818ms total)
T1944 046:248 JLINK_ReadMem (0x40003808, 0x0004 Bytes, ...) -- CPU_ReadMem(4 bytes @ 0x40003808) - Data: 02 00 00 00  returns 0x00 (0001ms, 0819ms total)
T1944 046:249 JLINK_ReadMem (0x40003808, 0x0004 Bytes, ...) -- CPU_ReadMem(4 bytes @ 0x40003808) - Data: 02 00 00 00  returns 0x00 (0001ms, 0820ms total)
T1944 046:257 JLINK_ReadMem (0x4000380C, 0x0004 Bytes, ...) -- CPU_ReadMem(4 bytes @ 0x4000380C) - Data: 02 00 00 00  returns 0x00 (0001ms, 0821ms total)
T1944 046:259 JLINK_ReadMem (0x4000380C, 0x0004 Bytes, ...) -- CPU_ReadMem(4 bytes @ 0x4000380C) - Data: 02 00 00 00  returns 0x00 (0001ms, 0822ms total)
T2BBC 049:716 JLINK_Step() -- CPU_ReadMem(64 bytes @ 0x08000540) -- Updating C cache (64 bytes @ 0x08000540) -- Read from C cache (2 bytes @ 0x08000542) -- CPU_ReadMem(4 bytes @ 0xE0001004) -- Simulated  returns 0x00 (0003ms, 0825ms total)
T2BBC 049:719 JLINK_ReadReg(R15 (PC))  returns 0x08000544 (0001ms, 0826ms total)
T2BBC 049:720 JLINK_ReadReg(XPSR)  returns 0x61000034 (0000ms, 0826ms total)
T2BBC 049:720 JLINK_SetBPEx(Addr = 0x08000542, Type = 0xFFFFFFF2)  returns 0x00000004 (0000ms, 0826ms total)
T2BBC 049:720 JLINK_Go() -- CPU_WriteMem(4 bytes @ 0xE0002000) -- CPU_WriteMem(4 bytes @ 0xE0001004) (0003ms, 0829ms total)
T2BBC 049:824 JLINK_IsHalted()  returns TRUE (0003ms, 0832ms total)
T2BBC 049:827 JLINK_Halt()  returns 0x00 (0001ms, 0830ms total)
T2BBC 049:828 JLINK_IsHalted()  returns TRUE (0000ms, 0830ms total)
T2BBC 049:828 JLINK_IsHalted()  returns TRUE (0000ms, 0830ms total)
T2BBC 049:828 JLINK_IsHalted()  returns TRUE (0000ms, 0830ms total)
T2BBC 049:828 JLINK_ReadReg(R15 (PC))  returns 0x08000542 (0000ms, 0830ms total)
T2BBC 049:828 JLINK_ReadReg(XPSR)  returns 0x81000034 (0000ms, 0830ms total)
T2BBC 049:828 JLINK_ClrBPEx(BPHandle = 0x00000004)  returns 0x00 (0000ms, 0830ms total)
T2BBC 049:828 JLINK_ReadMemU32(0xE000ED30, 0x0001 Items, ...) -- CPU_ReadMem(4 bytes @ 0xE000ED30) - Data: 03 00 00 00  returns 0x01 (0001ms, 0831ms total)
T2BBC 049:829 JLINK_ReadMemU32(0xE0001028, 0x0001 Items, ...) -- CPU_ReadMem(4 bytes @ 0xE0001028) - Data: 00 00 00 00  returns 0x01 (0001ms, 0832ms total)
T2BBC 049:830 JLINK_ReadMemU32(0xE0001038, 0x0001 Items, ...) -- CPU_ReadMem(4 bytes @ 0xE0001038) - Data: 00 02 00 00  returns 0x01 (0001ms, 0833ms total)
T2BBC 049:831 JLINK_ReadMemU32(0xE0001048, 0x0001 Items, ...) -- CPU_ReadMem(4 bytes @ 0xE0001048) - Data: 00 00 00 00  returns 0x01 (0001ms, 0834ms total)
T2BBC 049:832 JLINK_ReadMemU32(0xE0001058, 0x0001 Items, ...) -- CPU_ReadMem(4 bytes @ 0xE0001058) - Data: 00 00 00 00  returns 0x01 (0001ms, 0835ms total)
T2BBC 049:833 JLINK_ReadReg(R0)  returns 0x00000000 (0000ms, 0835ms total)
T2BBC 049:833 JLINK_ReadReg(R1)  returns 0x00000060 (0000ms, 0835ms total)
T2BBC 049:833 JLINK_ReadReg(R2)  returns 0x40003800 (0000ms, 0835ms total)
T2BBC 049:833 JLINK_ReadReg(R3)  returns 0x00000040 (0000ms, 0835ms total)
T2BBC 049:833 JLINK_ReadReg(R4)  returns 0x00000000 (0000ms, 0835ms total)
T2BBC 049:833 JLINK_ReadReg(R5)  returns 0x20000168 (0000ms, 0835ms total)
T2BBC 049:833 JLINK_ReadReg(R6)  returns 0x00000000 (0000ms, 0835ms total)
T2BBC 049:834 JLINK_ReadReg(R7)  returns 0x00000000 (0000ms, 0835ms total)
T2BBC 049:834 JLINK_ReadReg(R8)  returns 0x00000000 (0000ms, 0835ms total)
T2BBC 049:834 JLINK_ReadReg(R9)  returns 0x20000160 (0000ms, 0835ms total)
T2BBC 049:834 JLINK_ReadReg(R10)  returns 0x08003EDC (0000ms, 0835ms total)
T2BBC 049:834 JLINK_ReadReg(R11)  returns 0x00000000 (0000ms, 0835ms total)
T2BBC 049:834 JLINK_ReadReg(R12)  returns 0x00000008 (0000ms, 0835ms total)
T2BBC 049:834 JLINK_ReadReg(R13 (SP))  returns 0x20000790 (0000ms, 0835ms total)
T2BBC 049:834 JLINK_ReadReg(R14)  returns 0x08000523 (0000ms, 0835ms total)
T2BBC 049:834 JLINK_ReadReg(R15 (PC))  returns 0x08000542 (0000ms, 0835ms total)
T2BBC 049:834 JLINK_ReadReg(XPSR)  returns 0x81000034 (0000ms, 0835ms total)
T2BBC 049:834 JLINK_ReadReg(MSP)  returns 0x20000790 (0000ms, 0835ms total)
T2BBC 049:834 JLINK_ReadReg(PSP)  returns 0x20004000 (0000ms, 0835ms total)
T2BBC 049:834 JLINK_ReadReg(CFBP)  returns 0x00000000 (0000ms, 0835ms total)
T1944 049:835 JLINK_ReadMem (0x20000794, 0x0004 Bytes, ...) -- CPU_ReadMem(64 bytes @ 0x20000780) -- Updating C cache (64 bytes @ 0x20000780) -- Read from C cache (4 bytes @ 0x20000794) - Data: F9 FF FF FF  returns 0x00 (0001ms, 0836ms total)
T1944 049:837 JLINK_ReadMem (0x200007B0, 0x0004 Bytes, ...) -- Read from C cache (4 bytes @ 0x200007B0) - Data: D0 17 00 08  returns 0x00 (0000ms, 0837ms total)
T1944 049:837 JLINK_ReadMem (0x200007B4, 0x0004 Bytes, ...) -- Read from C cache (4 bytes @ 0x200007B4) - Data: 00 00 00 41  returns 0x00 (0000ms, 0837ms total)
T1944 049:837 JLINK_ReadMem (0x200007AC, 0x0004 Bytes, ...) -- Read from C cache (4 bytes @ 0x200007AC) - Data: 11 04 00 08  returns 0x00 (0000ms, 0837ms total)
T1944 049:837 JLINK_ReadMem (0xE000ED28, 0x0004 Bytes, ...) -- CPU_ReadMem(4 bytes @ 0xE000ED28) - Data: 00 00 00 00  returns 0x00 (0001ms, 0838ms total)
T1944 049:838 JLINK_ReadMem (0x200007BC, 0x0004 Bytes, ...) -- Read from C cache (4 bytes @ 0x200007BC) - Data: 11 04 00 08  returns 0x00 (0000ms, 0838ms total)
T1944 049:838 JLINK_ReadMem (0x200007B8, 0x0004 Bytes, ...) -- Read from C cache (4 bytes @ 0x200007B8) - Data: 00 00 00 00  returns 0x00 (0000ms, 0838ms total)
T1944 049:838 JLINK_ReadMem (0x200007C4, 0x0004 Bytes, ...) -- CPU_ReadMem(64 bytes @ 0x200007C0) -- Updating C cache (64 bytes @ 0x200007C0) -- Read from C cache (4 bytes @ 0x200007C4) - Data: D5 01 00 08  returns 0x00 (0002ms, 0840ms total)
T1944 049:840 JLINK_ReadMem (0x200007C0, 0x0004 Bytes, ...) -- Read from C cache (4 bytes @ 0x200007C0) - Data: 00 00 00 00  returns 0x00 (0000ms, 0840ms total)
T1944 049:840 JLINK_ReadMem (0x40003800, 0x0020 Bytes, ...) -- CPU_ReadMem(32 bytes @ 0x40003800) - Data: 7A 02 00 00 40 00 00 00 02 00 00 00 02 00 00 00 ...  returns 0x00 (0002ms, 0842ms total)
T1944 049:842 JLINK_ReadMem (0x40003820, 0x0004 Bytes, ...) -- CPU_ReadMem(4 bytes @ 0x40003820) - Data: 02 00 00 00  returns 0x00 (0001ms, 0843ms total)
T2BBC 061:996 JLINK_Step() -- CPU_ReadMem(64 bytes @ 0x08000540) -- Updating C cache (64 bytes @ 0x08000540) -- Read from C cache (2 bytes @ 0x08000542) -- CPU_ReadMem(4 bytes @ 0xE0001004) -- Simulated  returns 0x00 (0003ms, 0846ms total)
T2BBC 061:999 JLINK_ReadReg(R15 (PC))  returns 0x08000544 (0001ms, 0847ms total)
T2BBC 062:000 JLINK_ReadReg(XPSR)  returns 0x81000034 (0000ms, 0847ms total)
T2BBC 062:000 JLINK_SetBPEx(Addr = 0x08000542, Type = 0xFFFFFFF2)  returns 0x00000005 (0000ms, 0847ms total)
